
**** 02/18/21 13:20:32 ************** PSpice Lite (Mar 2000) *****************

 ** Profile: "SCHEMATIC1-test1"  [ E:\LabADE\pg1-SCHEMATIC1-test1.sim ] 


 ****     CIRCUIT DESCRIPTION


******************************************************************************




** Creating circuit file "pg1-SCHEMATIC1-test1.sim.cir" 
** WARNING: THIS AUTOMATICALLY GENERATED FILE MAY BE OVERWRITTEN BY SUBSEQUENT SIMULATIONS

*Libraries: 
* Local Libraries :
* From [PSPICE NETLIST] section of C:\Program Files\OrcadLite\PSpice\PSpice.ini file:
.lib "nom.lib" 

*Analysis directives: 
.TRAN  0 10m 0 0.01m 
.PROBE V(*) I(*) W(*) D(*) NOISE(*) 
.INC ".\pg1-SCHEMATIC1.net" 



**** INCLUDING pg1-SCHEMATIC1.net ****
* source PG1
X_X1         0 N01289 N00794 N00688 N01338 N01289 N01069 N00688 555D PARAMS:
+  MAXFREQ=3E6
D_D1         N01069 N01289 D1N4002 
R_R1         N01069 N00688  10k  
R_R2         N01289 N01069  3.6k  
R_R3         0 N00794  100k  
C_C1         0 N01289  0.1u  
V_V1         N00688 0 5Vdc
C_C2         0 N01338  0.01u  

**** RESUMING pg1-SCHEMATIC1-test1.sim.cir ****
.END


**** Generated AtoD and DtoA Interfaces ****

*
* Analog/Digital interface for node N00688
*
* Moving X_X1.u1:CLRBAR from analog node N00688 to new digital node N00688$AtoD
X$N00688_AtoD1
+ N00688
+ N00688$AtoD
+ N00688
+ 0
+ atod_555
+       PARAMS: CAPACITANCE=   0     
*
* Analog/Digital interface for node N00794
*
* Moving X_X1.u1:Q1 from analog node N00794 to new digital node N00794$DtoA
X$N00794_DtoA1
+ N00794$DtoA
+ N00794
+ N00688
+ 0
+ dtoa_555
+       PARAMS: DRVH=  96.4   DRVL= 104    CAPACITANCE=   0     
*
* Analog/Digital interface for node X_X1.qb
*
* Moving X_X1.u1:QBAR1 from analog node X_X1.qb to new digital node X_X1.qb$DtoA
X$X_X1.qb_DtoA1
+ X_X1.qb$DtoA
+ X_X1.qb
+ N00688
+ 0
+ dtoa_555
+       PARAMS: DRVH=  96.4   DRVL= 104    CAPACITANCE=   0     
*
* Analog/Digital interface power supply subcircuits
*

X$DIGIFPWR 0 DIGIFPWR

**** 02/18/21 13:20:32 ************** PSpice Lite (Mar 2000) *****************

 ** Profile: "SCHEMATIC1-test1"  [ E:\LabADE\pg1-SCHEMATIC1-test1.sim ] 


 ****     Diode MODEL PARAMETERS


******************************************************************************




               D1N4002         
          IS   14.110000E-09 
           N    1.984        
         ISR  100.000000E-12 
         IKF   94.81         
          BV  100.1          
         IBV   10            
          RS     .03389      
          TT    4.761000E-06 
         CJO   51.170000E-12 
          VJ     .3905       
           M     .2762       


**** 02/18/21 13:20:32 ************** PSpice Lite (Mar 2000) *****************

 ** Profile: "SCHEMATIC1-test1"  [ E:\LabADE\pg1-SCHEMATIC1-test1.sim ] 


 ****     MOSFET MODEL PARAMETERS


******************************************************************************




               X_X1.nchan      
               NMOS            
       LEVEL    1            
           L  100.000000E-06 
           W  100.000000E-06 
         VTO    0            
          KP   20.000000E-06 
       GAMMA    0            
         PHI     .6          
      LAMBDA    0            
          IS   10.000000E-15 
          JS    0            
          PB     .8          
        PBSW     .8          
          CJ    0            
        CJSW    0            
        CGSO    1.000000E-12 
        CGDO    1.000000E-12 
        CGBO    1.000000E-12 
         TOX    0            
          XJ    0            
       UCRIT   10.000000E+03 
      DIOMOD    1            
         VFB    0            
        LETA    0            
        WETA    0            
          U0    0            
        TEMP    0            
         VDD    0            
       XPART    0            


**** 02/18/21 13:20:32 ************** PSpice Lite (Mar 2000) *****************

 ** Profile: "SCHEMATIC1-test1"  [ E:\LabADE\pg1-SCHEMATIC1-test1.sim ] 


 ****     Digital Input MODEL PARAMETERS


******************************************************************************




               din555          
        FILE DSO_DTOA        
      FORMAT    6            
    TIMESTEP  100.000000E-12 
      S0NAME 0               
       S0TSW  700.000000E-12 
       S0RLO  100            
       S0RHI    1.000000E+06 
      S1NAME 1               
       S1TSW  700.000000E-12 
       S1RLO    1.000000E+06 
       S1RHI  300            
      S2NAME x               
       S2TSW  700.000000E-12 
       S2RLO  200            
       S2RHI  200            
      S3NAME r               
       S3TSW  700.000000E-12 
       S3RLO  200            
       S3RHI  200            
      S4NAME f               
       S4TSW  700.000000E-12 
       S4RLO  200            
       S4RHI  200            
      S5NAME z               
       S5TSW  700.000000E-12 
       S5RLO  200.000000E+03 
       S5RHI  200.000000E+03 


**** 02/18/21 13:20:32 ************** PSpice Lite (Mar 2000) *****************

 ** Profile: "SCHEMATIC1-test1"  [ E:\LabADE\pg1-SCHEMATIC1-test1.sim ] 


 ****     Digital Output MODEL PARAMETERS


******************************************************************************




               X_X1.cmp        do555           
        FILE DSO_ATOD        DSO_ATOD        
      FORMAT    6               6            
     CHGONLY    1               1            
    TIMESTEP  100.000000E-12  100.000000E-12 
      S0NAME 0               X               
       S0VHI                    2            
       S0VLO -500                .8          
      S1NAME 1               0               
       S1VHI  500                .8          
       S1VLO                   -1.5          
      S2NAME                 R               
       S2VHI                    1.4          
       S2VLO                     .8          
      S3NAME                 R               
       S3VHI                    2            
       S3VLO                    1.3          
      S4NAME                 X               
       S4VHI                    2            
       S4VLO                     .8          
      S5NAME                 1               
       S5VHI                   50            
       S5VLO                    2            
      S6NAME                 F               
       S6VHI                    2            
       S6VLO                    1.3          
      S7NAME                 F               
       S7VHI                    1.4          
       S7VLO                     .8          


**** 02/18/21 13:20:32 ************** PSpice Lite (Mar 2000) *****************

 ** Profile: "SCHEMATIC1-test1"  [ E:\LabADE\pg1-SCHEMATIC1-test1.sim ] 


 ****     Digital Gated FF MODEL PARAMETERS


******************************************************************************




               X_X1.t_srff     
    TPDQLHMN    0            
    TPDQLHTY    0            
    TPDQLHMX    0            
    TPDQHLMN    0            
    TPDQHLTY    0            
    TPDQHLMX    0            
    TPGQLHMN    0            
    TPGQLHTY    0            
    TPGQLHMX    0            
    TPGQHLMN    0            
    TPGQHLTY    0            
    TPGQHLMX    0            
   TPPCQLHMN   48.000000E-09 
   TPPCQLHTY  120.000000E-09 
   TPPCQLHMX  192.000000E-09 
   TPPCQHLMN    0            
   TPPCQHLTY    0            
   TPPCQHLMX    0            
      TWGHMN    0            
      TWGHTY    0            
      TWGHMX    0            
     TWPCLMN    0            
     TWPCLTY    0            
     TWPCLMX    0            
     TSUDGMN    0            
     TSUDGTY    0            
     TSUDGMX    0            
   TSUPCGHMN    0            
   TSUPCGHTY    0            
   TSUPCGHMX    0            
      THDGMN    0            
      THDGTY    0            
      THDGMX    0            


**** 02/18/21 13:20:32 ************** PSpice Lite (Mar 2000) *****************

 ** Profile: "SCHEMATIC1-test1"  [ E:\LabADE\pg1-SCHEMATIC1-test1.sim ] 


 ****     Digital Delay Line MODEL PARAMETERS


******************************************************************************




               X_X1.dlymod     
       DLYMN  166.666700E-09 
       DLYTY  166.666700E-09 
       DLYMX  166.666700E-09 


**** 02/18/21 13:20:32 ************** PSpice Lite (Mar 2000) *****************

 ** Profile: "SCHEMATIC1-test1"  [ E:\LabADE\pg1-SCHEMATIC1-test1.sim ] 


 ****     Digital IO  MODEL PARAMETERS


******************************************************************************




               X_X1.io_555     io_std          io_stm          
        DRVL  104             104               0            
        DRVH   96.4            96.4             0            
       AtoD1 atod_555        AtoD_STD                        
       AtoD2 atod_555        AtoD_STD_NX                     
       AtoD3 atod_555        AtoD_STD                        
       AtoD4 atod_555        AtoD_STD_NX                     
       DtoA1 dtoa_555        DtoA_STD        DtoA_STM        
       DtoA2 dtoa_555        DtoA_STD        DtoA_STM        
       DtoA3 dtoa_555        DtoA_STD        DtoA_STM        
       DtoA4 dtoa_555        DtoA_STD        DtoA_STM        
      TSWHL1                    1.373000E-09                 
      TSWHL2                    1.346000E-09                 
      TSWHL3                    1.511000E-09                 
      TSWHL4                    1.487000E-09                 
      TSWLH1                    3.382000E-09                 
      TSWLH2                    3.424000E-09                 
      TSWLH3                    3.517000E-09                 
      TSWLH4                    3.564000E-09                 
       TPWRT  100.000000E+03  100.000000E+03  100.000000E+03 


**** 02/18/21 13:20:32 ************** PSpice Lite (Mar 2000) *****************

 ** Profile: "SCHEMATIC1-test1"  [ E:\LabADE\pg1-SCHEMATIC1-test1.sim ] 


 ****     INITIAL TRANSIENT SOLUTION       TEMPERATURE =   27.000 DEG C


******************************************************************************



 NODE   VOLTAGE     NODE   VOLTAGE     NODE   VOLTAGE     NODE   VOLTAGE


(N00688)    5.0000 (N00794)    4.9836 (N01069)    5.0000 (N01289)    5.0000     

(N01338)    3.3333 ($G_DGND)    0.0000                   ($G_DPWR)    5.0000    

(X_X1.qb) 500.0E-06                   (X_X1.botm)    1.6667                 



 DGTL NODE : STATE  DGTL NODE : STATE  DGTL NODE : STATE  DGTL NODE : STATE


(N00794$DtoA) : 1  (  X_X1.r) : 1     ( X_X1.sd) : 0     (N00688$AtoD) : 1      

( X_X1.rd) : 1     (X_X1.strt) : 0    (  X_X1.s) : 0     ( X_X1.hi) : 1         

(X_X1.qb$DtoA) : 0                    




    VOLTAGE SOURCE CURRENTS
    NAME         CURRENT

    V_V1        -1.880E-04
    X$DIGIFPWR.VDPWR  -5.000E-06
    X$DIGIFPWR.VDGND  -5.000E-06

    TOTAL POWER DISSIPATION   9.65E-04  WATTS



          JOB CONCLUDED

          TOTAL JOB TIME             .09
