
**** 02/18/21 13:52:59 ************** PSpice Lite (Mar 2000) *****************

 ** Profile: "SCHEMATIC1-test3"  [ E:\LabADE\pg3-SCHEMATIC1-test3.sim ] 


 ****     CIRCUIT DESCRIPTION


******************************************************************************




** Creating circuit file "pg3-SCHEMATIC1-test3.sim.cir" 
** WARNING: THIS AUTOMATICALLY GENERATED FILE MAY BE OVERWRITTEN BY SUBSEQUENT SIMULATIONS

*Libraries: 
* Local Libraries :
* From [PSPICE NETLIST] section of C:\Program Files\OrcadLite\PSpice\PSpice.ini file:
.lib "nom.lib" 

*Analysis directives: 
.TRAN  0 100m 0 0.01m 
.PROBE V(*) I(*) W(*) D(*) NOISE(*) 
.INC ".\pg3-SCHEMATIC1.net" 



**** INCLUDING pg3-SCHEMATIC1.net ****
* source PG3
V_V3         N00819 0 12Vdc
X_U1         N00568 N00608 N01066 N01029 N01147 uA741
R_R1         0 N01221  1k  
V_V4         N01066 0 12Vdc
V_V7         N00608 0  
+SIN 0 10V 50Hz 0 0 0
X_U2         N00608 N00728 N00819 N00765 N01184 uA741
V_V5         N00568 0 3Vdc
V_V6         N00728 0 3Vdc
D_D1         N01147 N01221 D1N4002 
D_D2         N01184 N01221 D1N4002 
V_V1         0 N01029 12Vdc
V_V2         0 N00765 12Vdc

**** RESUMING pg3-SCHEMATIC1-test3.sim.cir ****
.END

**** 02/18/21 13:52:59 ************** PSpice Lite (Mar 2000) *****************

 ** Profile: "SCHEMATIC1-test3"  [ E:\LabADE\pg3-SCHEMATIC1-test3.sim ] 


 ****     Diode MODEL PARAMETERS


******************************************************************************




               D1N4002         X_U1.dx         X_U2.dx         
          IS   14.110000E-09  800.000000E-18  800.000000E-18 
           N    1.984                                        
         ISR  100.000000E-12                                 
         IKF   94.81                                         
          BV  100.1                                          
         IBV   10                                            
          RS     .03389         1               1            
          TT    4.761000E-06                                 
         CJO   51.170000E-12                                 
          VJ     .3905                                       
           M     .2762                                       


**** 02/18/21 13:52:59 ************** PSpice Lite (Mar 2000) *****************

 ** Profile: "SCHEMATIC1-test3"  [ E:\LabADE\pg3-SCHEMATIC1-test3.sim ] 


 ****     BJT MODEL PARAMETERS


******************************************************************************




               X_U1.qx         X_U2.qx         
               NPN             NPN             
          IS  800.000000E-18  800.000000E-18 
          BF   93.75           93.75         
          NF    1               1            
          BR    1               1            
          NR    1               1            
          CN    2.42            2.42         
           D     .87             .87         


**** 02/18/21 13:52:59 ************** PSpice Lite (Mar 2000) *****************

 ** Profile: "SCHEMATIC1-test3"  [ E:\LabADE\pg3-SCHEMATIC1-test3.sim ] 


 ****     INITIAL TRANSIENT SOLUTION       TEMPERATURE =   27.000 DEG C


******************************************************************************



 NODE   VOLTAGE     NODE   VOLTAGE     NODE   VOLTAGE     NODE   VOLTAGE


(N00568)    3.0000 (N00608)    0.0000 (N00728)    3.0000 (N00765)  -12.0000     

(N00819)   12.0000 (N01029)  -12.0000 (N01066)   12.0000 (N01147)   11.6140     

(N01184)  -11.6140 (N01221)   10.9180 (X_U1.6)   -1.5163 (X_U1.7)   12.1600     

(X_U1.8)   12.1600 (X_U1.9)    0.0000 (X_U2.6)    1.5191 (X_U2.7)  -11.6140     

(X_U2.8)  -11.6140 (X_U2.9)    0.0000 (X_U1.10)    2.3597                       

(X_U1.11)   12.0000                   (X_U1.12)   11.9190                       

(X_U1.13)    2.3597                   (X_U1.14)    2.3879                       

(X_U1.53)   11.0000                   (X_U1.54)  -11.0000                       

(X_U1.90)   10.9340                   (X_U1.91)   40.0000                       

(X_U1.92)  -40.0000                   (X_U1.99)    0.0000                       

(X_U2.10)    2.3597                   (X_U2.11)   11.9190                       

(X_U2.12)   12.0000                   (X_U2.13)    2.3879                       

(X_U2.14)    2.3597                   (X_U2.53)   11.0000                       

(X_U2.54)  -11.0000                   (X_U2.90)    -.0161                       

(X_U2.91)   40.0000                   (X_U2.92)  -40.0000                       

(X_U2.99)    0.0000                   




    VOLTAGE SOURCE CURRENTS
    NAME         CURRENT

    V_V3        -1.337E-03
    V_V4        -1.321E-03
    V_V7         2.405E-11
    V_V5        -1.619E-07
    V_V6        -1.619E-07
    V_V1        -1.337E-03
    V_V2        -1.321E-03
    X_U1.vb     -1.516E-05
    X_U1.vc     -1.607E-05
    X_U1.ve      2.261E-11
    X_U1.vlim    1.093E-02
    X_U1.vlp    -2.907E-11
    X_U1.vln    -5.094E-11
    X_U2.vb      1.519E-05
    X_U2.vc      2.261E-11
    X_U2.ve     -1.611E-05
    X_U2.vlim   -1.612E-05
    X_U2.vlp    -4.002E-11
    X_U2.vln    -3.999E-11

    TOTAL POWER DISSIPATION   6.38E-02  WATTS



          JOB CONCLUDED

          TOTAL JOB TIME             .67
